
T2BDC 000:325 SEGGER J-Link V4.96 Log File (0001ms, 0266ms total)
T2BDC 000:325 DLL Compiled: Dec 22 2014 09:51:48 (0001ms, 0266ms total)
T2BDC 000:325 Logging started @ 2017-06-26 17:24 (0001ms, 0266ms total)
T2BDC 000:326 JLINK_SetWarnOutHandler(...) (0000ms, 0266ms total)
T2BDC 000:326 JLINK_OpenEx(...)
Firmware: J-Link ARM V8 compiled Nov 28 2014 13:44:46
Hardware: V8.00
Feature(s): RDI,FlashDL,FlasGDBFULLash,GDBFull  returns O.K. (0261ms, 0527ms total)
T2BDC 000:587 JLINK_SetErrorOutHandler(...) (0000ms, 0527ms total)
T2BDC 000:587 JLINK_ExecCommand("ProjectFile = "D:\Device\32Bit\Code\Project\JLinkSettings.ini"", ...)Device "STM32F405RG" selected.  returns 0x00 (0001ms, 0528ms total)
T2BDC 000:588 JLINK_ExecCommand("Device = STM32F405RGTx", ...)Device "STM32F405RG" selected.  returns 0x00 (0001ms, 0529ms total)
T2BDC 000:589 JLINK_ExecCommand("DisableConnectionTimeout", ...)  returns 0x01 (0000ms, 0529ms total)
T2BDC 000:589 JLINK_GetHardwareVersion()  returns 0x13880 (0000ms, 0529ms total)
T2BDC 000:589 JLINK_GetDLLVersion()  returns 49600 (0000ms, 0529ms total)
T2BDC 000:589 JLINK_GetFirmwareString(...) (0000ms, 0529ms total)
T2BDC 000:591 JLINK_GetDLLVersion()  returns 49600 (0000ms, 0529ms total)
T2BDC 000:591 JLINK_GetCompileDateTime() (0000ms, 0529ms total)
T2BDC 000:591 JLINK_GetFirmwareString(...) (0000ms, 0529ms total)
T2BDC 000:591 JLINK_GetHardwareVersion()  returns 0x13880 (0000ms, 0529ms total)
T2BDC 000:592 JLINK_TIF_Select(JLINKARM_TIF_SWD)  returns 0x00 (0001ms, 0530ms total)
T2BDC 000:593 JLINK_SetSpeed(20000) (0000ms, 0530ms total)
T2BDC 000:593 JLINK_GetId() >0x108 TIF>Found SWD-DP with ID 0x2BA01477 >0x0D TIF> >0x28 TIF> >0x0D TIF> >0x28 TIF> >0x0D TIF> >0x21 TIF> >0x0D TIF> >0x28 TIF> >0x0D TIF> >0x28 TIF> >0x0D TIF> >0x28 TIF> >0x0D TIF> >0x21 TIF> >0x0D TIF> >0x21 TIF> >0x0D TIF> >0x28 TIF> >0x0D TIF> >0x21 TIF> >0x0D TIF> >0x21 TIF> >0x0D TIF> >0x28 TIF> >0x0D TIF> >0x21 TIF> >0x0D TIF> >0x21 TIF> >0x108 TIF>Found SWD-DP with ID 0x2BA01477 >0x0D TIF> >0x21 TIF> >0x0D TIF> >0x28 TIF> >0x0D TIF> >0x28 TIF> >0x0D TIF> >0x21 TIF>
 >0x0D TIF> >0x28 TIF> >0x0D TIF> >0x21 TIF> >0x0D TIF> >0x21 TIF> >0x0D TIF> >0x21 TIF> >0x0D TIF> >0x21 TIF> >0x0D TIF> >0x28 TIF> >0x0D TIF> >0x28 TIF> >0x0D TIF> >0x21 TIF> >0x0D TIF> >0x28 TIF> >0x0D TIF> >0x28 TIF> >0x0D TIF> >0x28 TIF> >0x0D TIF> >0x21 TIF> >0x0D TIF> >0x21 TIF> >0x0D TIF> >0x28 TIF> >0x0D TIF> >0x21 TIF> >0x0D TIF> >0x21 TIF>Found Cortex-M4 r0p1, Little endian. -- CPU_WriteMem(4 bytes @ 0xE0002000) -- CPU_ReadMem(4 bytes @ 0xE000EDF0) -- CPU_ReadMem(4 bytes @ 0xE0002000)
FPUnit: 6 code (BP) slots and 2 literal slots -- CPU_ReadMem(4 bytes @ 0xE000EDFC) -- CPU_ReadMem(4 bytes @ 0xE0001000) -- CPU_WriteMem(4 bytes @ 0xE0001000) -- CPU_ReadMem(4 bytes @ 0xE000ED88) -- CPU_WriteMem(4 bytes @ 0xE000ED88) -- CPU_ReadMem(4 bytes @ 0xE000ED88) -- CPU_WriteMem(4 bytes @ 0xE000ED88) -- CPU_ReadMem(4 bytes @ 0xE00FF010)TPIU fitted. -- CPU_ReadMem(4 bytes @ 0xE00FF014)ETM fitted. -- CPU_ReadMem(4 bytes @ 0xE00FF018) >0x0D TIF> >0x21 TIF>  returns 0x2BA01477 (0025ms, 0555ms total)
T2BDC 000:618 JLINK_GetDLLVersion()  returns 49600 (0000ms, 0555ms total)
T2BDC 000:618 JLINK_CORE_GetFound()  returns 0xE0000FF (0000ms, 0555ms total)
T2BDC 000:618 JLINK_GetDebugInfo(0x100) -- Value=0xE00FF003  returns 0x00 (0000ms, 0555ms total)
T2BDC 000:620 JLINK_ReadMem (0xE00FF000, 0x0020 Bytes, ...) -- CPU is running -- CPU_ReadMem(32 bytes @ 0xE00FF000) - Data: 03 F0 F0 FF 03 20 F0 FF 03 30 F0 FF 03 10 F0 FF ...  returns 0x00 (0000ms, 0555ms total)
T2BDC 000:620 JLINK_ReadMem (0xE000EFF0, 0x0010 Bytes, ...) -- CPU is running -- CPU_ReadMem(16 bytes @ 0xE000EFF0) - Data: 0D 00 00 00 E0 00 00 00 05 00 00 00 B1 00 00 00  returns 0x00 (0001ms, 0556ms total)
T2BDC 000:621 JLINK_ReadMem (0xE000EFD0, 0x0020 Bytes, ...) -- CPU is running -- CPU_ReadMem(32 bytes @ 0xE000EFD0) - Data: 04 00 00 00 00 00 00 00 00 00 00 00 00 00 00 00 ...  returns 0x00 (0000ms, 0556ms total)
T2BDC 000:621 JLINK_ReadMem (0xE0001FF0, 0x0010 Bytes, ...) -- CPU is running -- CPU_ReadMem(16 bytes @ 0xE0001FF0) - Data: 0D 00 00 00 E0 00 00 00 05 00 00 00 B1 00 00 00  returns 0x00 (0001ms, 0557ms total)
T2BDC 000:622 JLINK_ReadMem (0xE0001FD0, 0x0020 Bytes, ...) -- CPU is running -- CPU_ReadMem(32 bytes @ 0xE0001FD0) - Data: 04 00 00 00 00 00 00 00 00 00 00 00 00 00 00 00 ...  returns 0x00 (0001ms, 0558ms total)
T2BDC 000:623 JLINK_ReadMem (0xE0002FF0, 0x0010 Bytes, ...) -- CPU is running -- CPU_ReadMem(16 bytes @ 0xE0002FF0) - Data: 0D 00 00 00 E0 00 00 00 05 00 00 00 B1 00 00 00  returns 0x00 (0000ms, 0558ms total)
T2BDC 000:623 JLINK_ReadMem (0xE0002FD0, 0x0020 Bytes, ...) -- CPU is running -- CPU_ReadMem(32 bytes @ 0xE0002FD0) - Data: 04 00 00 00 00 00 00 00 00 00 00 00 00 00 00 00 ...  returns 0x00 (0001ms, 0559ms total)
T2BDC 000:624 JLINK_ReadMem (0xE0000FF0, 0x0010 Bytes, ...) -- CPU is running -- CPU_ReadMem(16 bytes @ 0xE0000FF0) - Data: 0D 00 00 00 E0 00 00 00 05 00 00 00 B1 00 00 00  returns 0x00 (0000ms, 0559ms total)
T2BDC 000:624 JLINK_ReadMem (0xE0000FD0, 0x0020 Bytes, ...) -- CPU is running -- CPU_ReadMem(32 bytes @ 0xE0000FD0) - Data: 04 00 00 00 00 00 00 00 00 00 00 00 00 00 00 00 ...  returns 0x00 (0001ms, 0560ms total)
T2BDC 000:625 JLINK_ReadMem (0xE0040FF0, 0x0010 Bytes, ...) -- CPU is running -- CPU_ReadMem(16 bytes @ 0xE0040FF0) - Data: 0D 00 00 00 90 00 00 00 05 00 00 00 B1 00 00 00  returns 0x00 (0000ms, 0560ms total)
T2BDC 000:625 JLINK_ReadMem (0xE0040FD0, 0x0020 Bytes, ...) -- CPU is running -- CPU_ReadMem(32 bytes @ 0xE0040FD0) - Data: 04 00 00 00 00 00 00 00 00 00 00 00 00 00 00 00 ...  returns 0x00 (0001ms, 0561ms total)
T2BDC 000:626 JLINK_ReadMem (0xE0041FF0, 0x0010 Bytes, ...) -- CPU is running -- CPU_ReadMem(16 bytes @ 0xE0041FF0) - Data: 0D 00 00 00 90 00 00 00 05 00 00 00 B1 00 00 00  returns 0x00 (0000ms, 0561ms total)
T2BDC 000:626 JLINK_ReadMem (0xE0041FD0, 0x0020 Bytes, ...) -- CPU is running -- CPU_ReadMem(32 bytes @ 0xE0041FD0) - Data: 04 00 00 00 00 00 00 00 00 00 00 00 00 00 00 00 ...  returns 0x00 (0001ms, 0562ms total)
T2BDC 000:627 JLINK_ReadMemU32(0xE000EF40, 0x0001 Items, ...) -- CPU is running -- CPU_ReadMem(4 bytes @ 0xE000EF40) - Data: 21 00 11 10  returns 0x01 (0000ms, 0562ms total)
T2BDC 000:627 JLINK_ReadMemU32(0xE000EF44, 0x0001 Items, ...) -- CPU is running -- CPU_ReadMem(4 bytes @ 0xE000EF44) - Data: 11 00 00 11  returns 0x01 (0001ms, 0563ms total)
T2BDC 000:628 JLINK_ReadMemU32(0xE000ED00, 0x0001 Items, ...) -- CPU is running -- CPU_ReadMem(4 bytes @ 0xE000ED00) - Data: 41 C2 0F 41  returns 0x01 (0000ms, 0563ms total)
T2BDC 000:628 JLINK_SetResetType(JLINKARM_RESET_TYPE_NORMAL)  returns JLINKARM_RESET_TYPE_NORMAL (0000ms, 0563ms total)
T2BDC 000:628 JLINK_Reset() -- CPU is running -- CPU_WriteMem(4 bytes @ 0xE000EDF0) -- CPU is running -- CPU_WriteMem(4 bytes @ 0xE000EDFC) >0x35 TIF> -- CPU is running -- CPU_WriteMem(4 bytes @ 0xE000ED0C) -- CPU is running -- CPU_ReadMem(4 bytes @ 0xE000EDF0) -- CPU is running -- CPU_ReadMem(4 bytes @ 0xE000EDF0) -- CPU is running -- CPU_WriteMem(4 bytes @ 0xE000EDF0) -- CPU is running -- CPU_WriteMem(4 bytes @ 0xE000EDFC) -- CPU is running -- CPU_ReadMem(4 bytes @ 0xE000EDF0)
 -- CPU_WriteMem(4 bytes @ 0xE0002000) -- CPU_ReadMem(4 bytes @ 0xE000EDFC) -- CPU_ReadMem(4 bytes @ 0xE0001000) (0016ms, 0579ms total)
T2BDC 000:644 JLINK_ReadReg(R15 (PC))  returns 0x08000558 (0000ms, 0579ms total)
T2BDC 000:644 JLINK_ReadReg(XPSR)  returns 0x01000000 (0000ms, 0579ms total)
T2BDC 000:644 JLINK_Halt()  returns 0x00 (0000ms, 0579ms total)
T2BDC 000:644 JLINK_IsHalted()  returns TRUE (0000ms, 0579ms total)
T2BDC 000:644 JLINK_ReadMemU32(0xE000EDF0, 0x0001 Items, ...) -- CPU_ReadMem(4 bytes @ 0xE000EDF0) - Data: 03 00 03 00  returns 0x01 (0000ms, 0579ms total)
T2BDC 000:644 JLINK_WriteU32(0xE000EDF0, 0xA05F0003) -- CPU_WriteMem(4 bytes @ 0xE000EDF0)  returns 0x00 (0001ms, 0580ms total)
T2BDC 000:645 JLINK_WriteU32(0xE000EDFC, 0x01000000) -- CPU_WriteMem(4 bytes @ 0xE000EDFC)  returns 0x00 (0000ms, 0580ms total)
T2BDC 000:646 JLINK_GetHWStatus(...)  returns 0x00 (0000ms, 0580ms total)
T2BDC 000:647 JLINK_GetNumBPUnits(Type = 0xFFFFFF00)  returns 0x06 (0000ms, 0580ms total)
T2BDC 000:647 JLINK_GetNumBPUnits(Type = 0xF0)  returns 0x2000 (0000ms, 0580ms total)
T2BDC 000:647 JLINK_GetNumWPUnits()  returns 0x04 (0000ms, 0580ms total)
T2BDC 000:649 JLINK_GetSpeed()  returns 0xFA0 (0000ms, 0580ms total)
T2BDC 000:650 JLINK_ReadMemU32(0xE000E004, 0x0001 Items, ...) -- CPU_ReadMem(4 bytes @ 0xE000E004) - Data: 02 00 00 00  returns 0x01 (0000ms, 0580ms total)
T2BDC 000:650 JLINK_ReadMemU32(0xE000E004, 0x0001 Items, ...) -- CPU_ReadMem(4 bytes @ 0xE000E004) - Data: 02 00 00 00  returns 0x01 (0001ms, 0581ms total)
T2BDC 000:651 JLINK_WriteMem(0xE0001000, 0x001C Bytes, ...) - Data: 01 00 00 00 00 00 00 00 00 00 00 00 00 00 00 00 ... -- CPU_WriteMem(28 bytes @ 0xE0001000)  returns 0x1C (0000ms, 0581ms total)
T2BDC 000:651 JLINK_ReadMem (0xE0001000, 0x001C Bytes, ...) -- CPU_ReadMem(28 bytes @ 0xE0001000) - Data: 01 00 00 40 00 00 00 00 00 00 00 00 00 00 00 00 ...  returns 0x00 (0001ms, 0582ms total)
T2BDC 000:652 JLINK_ReadReg(R15 (PC))  returns 0x08000558 (0000ms, 0582ms total)
T2BDC 000:652 JLINK_ReadReg(XPSR)  returns 0x01000000 (0000ms, 0582ms total)
T2BDC 000:724 JLINK_SetResetType(JLINKARM_RESET_TYPE_NORMAL)  returns JLINKARM_RESET_TYPE_NORMAL (0000ms, 0582ms total)
T2BDC 000:724 JLINK_Reset() -- CPU_WriteMem(4 bytes @ 0xE000EDF0) -- CPU_WriteMem(4 bytes @ 0xE000EDFC) >0x35 TIF> -- CPU_WriteMem(4 bytes @ 0xE000ED0C) -- CPU_ReadMem(4 bytes @ 0xE000EDF0) -- CPU_ReadMem(4 bytes @ 0xE000EDF0) -- CPU_WriteMem(4 bytes @ 0xE000EDF0) -- CPU_WriteMem(4 bytes @ 0xE000EDFC) -- CPU is running -- CPU_ReadMem(4 bytes @ 0xE000EDF0) -- CPU_WriteMem(4 bytes @ 0xE0002000) -- CPU_ReadMem(4 bytes @ 0xE000EDFC) -- CPU_ReadMem(4 bytes @ 0xE0001000) (0016ms, 0598ms total)
T2BDC 000:740 JLINK_ReadReg(R15 (PC))  returns 0x08000558 (0000ms, 0598ms total)
T2BDC 000:740 JLINK_ReadReg(XPSR)  returns 0x01000000 (0000ms, 0598ms total)
T2BDC 000:740 JLINK_ReadMem (0x08000458, 0x003C Bytes, ...) -- CPU_ReadMem(128 bytes @ 0x08000440) -- Updating C cache (128 bytes @ 0x08000440) -- Read from C cache (60 bytes @ 0x08000458) - Data: 70 BD 70 B5 86 B0 01 21 02 20 00 F0 09 FB 01 21 ...  returns 0x00 (0001ms, 0599ms total)
T2BDC 000:741 JLINK_ReadMem (0x08000494, 0x003C Bytes, ...) -- CPU_ReadMem(64 bytes @ 0x080004C0) -- Updating C cache (64 bytes @ 0x080004C0) -- Read from C cache (60 bytes @ 0x08000494) - Data: 8D F8 05 50 01 20 8D F8 07 00 69 46 30 46 00 F0 ...  returns 0x00 (0001ms, 0600ms total)
T2BDC 000:742 JLINK_ReadMem (0x080004D0, 0x003C Bytes, ...) -- CPU_ReadMem(64 bytes @ 0x08000500) -- Updating C cache (64 bytes @ 0x08000500) -- Read from C cache (60 bytes @ 0x080004D0) - Data: AD F8 12 00 02 A9 20 46 00 F0 CF FB 01 22 40 F2 ...  returns 0x00 (0001ms, 0601ms total)
T2BDC 000:743 JLINK_ReadMem (0x0800050C, 0x003C Bytes, ...) -- CPU_ReadMem(64 bytes @ 0x08000540) -- Updating C cache (64 bytes @ 0x08000540) -- Read from C cache (60 bytes @ 0x0800050C) - Data: 70 47 00 E0 40 1E 00 28 FC D1 70 47 70 47 10 B5 ...  returns 0x00 (0001ms, 0602ms total)
T2BDC 000:744 JLINK_ReadMem (0x08000552, 0x0002 Bytes, ...) -- Read from C cache (2 bytes @ 0x08000552) - Data: 00 40  returns 0x00 (0000ms, 0602ms total)
T2BDC 000:744 JLINK_ReadMem (0x08000554, 0x003C Bytes, ...) -- CPU_ReadMem(64 bytes @ 0x08000580) -- Updating C cache (64 bytes @ 0x08000580) -- Read from C cache (60 bytes @ 0x08000554) - Data: 00 00 00 20 09 48 80 47 09 48 00 47 FE E7 FE E7 ...  returns 0x00 (0001ms, 0603ms total)
T2BDC 002:271 JLINK_ReadMem (0x20000000, 0x0002 Bytes, ...) -- CPU_ReadMem(64 bytes @ 0x20000000) -- Updating C cache (64 bytes @ 0x20000000) -- Read from C cache (2 bytes @ 0x20000000) - Data: FE E7  returns 0x00 (0001ms, 0604ms total)
T2BDC 002:282 JLINK_ReadMem (0x00000000, 0x0069 Bytes, ...) -- CPU_ReadMem(4 bytes @ 0x00000004) -- CPU_ReadMem(128 bytes @ 0x08000000) -- Updating C cache (128 bytes @ 0x08000000) -- Read from C cache (105 bytes @ 0x08000000) - Data: 90 06 00 20 59 05 00 08 BD 02 00 08 BF 02 00 08 ...  returns 0x00 (0002ms, 0606ms total)
T52A0 002:303 JLINK_SetBPEx(Addr = 0x0800023A, Type = 0xFFFFFFF2)  returns 0x00000001 (0000ms, 0606ms total)
T52A0 002:303 JLINK_Go() -- CPU_WriteMem(4 bytes @ 0xE0002000) -- CPU_WriteMem(4 bytes @ 0xE0002008) -- CPU_WriteMem(4 bytes @ 0xE000200C) -- CPU_WriteMem(4 bytes @ 0xE0002010) -- CPU_WriteMem(4 bytes @ 0xE0002014) -- CPU_WriteMem(4 bytes @ 0xE0002018) -- CPU_WriteMem(4 bytes @ 0xE000201C) -- CPU_WriteMem(4 bytes @ 0xE0001004) (0004ms, 0610ms total)
T52A0 002:407 JLINK_IsHalted()  returns TRUE (0002ms, 0612ms total)
T52A0 002:409 JLINK_Halt()  returns 0x00 (0000ms, 0610ms total)
T52A0 002:409 JLINK_IsHalted()  returns TRUE (0000ms, 0610ms total)
T52A0 002:409 JLINK_IsHalted()  returns TRUE (0000ms, 0610ms total)
T52A0 002:409 JLINK_IsHalted()  returns TRUE (0000ms, 0610ms total)
T52A0 002:409 JLINK_ReadReg(R15 (PC))  returns 0x0800023A (0000ms, 0610ms total)
T52A0 002:409 JLINK_ReadReg(XPSR)  returns 0x21000000 (0000ms, 0610ms total)
T52A0 002:409 JLINK_ClrBPEx(BPHandle = 0x00000001)  returns 0x00 (0000ms, 0610ms total)
T52A0 002:409 JLINK_ReadMemU32(0xE000ED30, 0x0001 Items, ...) -- CPU_ReadMem(4 bytes @ 0xE000ED30) - Data: 03 00 00 00  returns 0x01 (0001ms, 0611ms total)
T52A0 002:410 JLINK_ReadMemU32(0xE0001028, 0x0001 Items, ...) -- CPU_ReadMem(4 bytes @ 0xE0001028) - Data: 00 00 00 00  returns 0x01 (0000ms, 0611ms total)
T52A0 002:410 JLINK_ReadMemU32(0xE0001038, 0x0001 Items, ...) -- CPU_ReadMem(4 bytes @ 0xE0001038) - Data: 00 02 00 00  returns 0x01 (0000ms, 0611ms total)
T52A0 002:410 JLINK_ReadMemU32(0xE0001048, 0x0001 Items, ...) -- CPU_ReadMem(4 bytes @ 0xE0001048) - Data: 00 00 00 00  returns 0x01 (0001ms, 0612ms total)
T52A0 002:411 JLINK_ReadMemU32(0xE0001058, 0x0001 Items, ...) -- CPU_ReadMem(4 bytes @ 0xE0001058) - Data: 00 00 00 00  returns 0x01 (0000ms, 0612ms total)
T52A0 002:411 JLINK_ReadReg(R0)  returns 0x20000090 (0000ms, 0612ms total)
T52A0 002:411 JLINK_ReadReg(R1)  returns 0x20000290 (0000ms, 0612ms total)
T52A0 002:411 JLINK_ReadReg(R2)  returns 0x20000290 (0000ms, 0612ms total)
T52A0 002:411 JLINK_ReadReg(R3)  returns 0x20000290 (0000ms, 0612ms total)
T52A0 002:411 JLINK_ReadReg(R4)  returns 0x00000000 (0000ms, 0612ms total)
T52A0 002:411 JLINK_ReadReg(R5)  returns 0x2000002C (0000ms, 0612ms total)
T52A0 002:411 JLINK_ReadReg(R6)  returns 0x00000000 (0000ms, 0612ms total)
T52A0 002:411 JLINK_ReadReg(R7)  returns 0x00000000 (0000ms, 0612ms total)
T52A0 002:411 JLINK_ReadReg(R8)  returns 0x00000000 (0000ms, 0612ms total)
T52A0 002:411 JLINK_ReadReg(R9)  returns 0x00000000 (0000ms, 0612ms total)
T52A0 002:411 JLINK_ReadReg(R10)  returns 0x080012B4 (0001ms, 0613ms total)
T52A0 002:412 JLINK_ReadReg(R11)  returns 0x00000000 (0000ms, 0613ms total)
T52A0 002:412 JLINK_ReadReg(R12)  returns 0x2000006C (0000ms, 0613ms total)
T52A0 002:412 JLINK_ReadReg(R13 (SP))  returns 0x20000690 (0000ms, 0613ms total)
T52A0 002:412 JLINK_ReadReg(R14)  returns 0x08000221 (0000ms, 0613ms total)
T52A0 002:412 JLINK_ReadReg(R15 (PC))  returns 0x0800023A (0000ms, 0613ms total)
T52A0 002:412 JLINK_ReadReg(XPSR)  returns 0x21000000 (0000ms, 0613ms total)
T52A0 002:412 JLINK_ReadReg(MSP)  returns 0x20000690 (0000ms, 0613ms total)
T52A0 002:412 JLINK_ReadReg(PSP)  returns 0x00000000 (0000ms, 0613ms total)
T52A0 002:412 JLINK_ReadReg(CFBP)  returns 0x04000000 (0000ms, 0613ms total)
T52A0 002:412 JLINK_ReadReg(FPSCR)  returns 0x03000000 (0003ms, 0616ms total)
T52A0 002:415 JLINK_ReadReg(FPS0)  returns 0x00000000 (0000ms, 0616ms total)
T52A0 002:415 JLINK_ReadReg(FPS1)  returns 0x00000000 (0000ms, 0616ms total)
T52A0 002:415 JLINK_ReadReg(FPS2)  returns 0x00000000 (0000ms, 0616ms total)
T52A0 002:415 JLINK_ReadReg(FPS3)  returns 0x00000000 (0000ms, 0616ms total)
T52A0 002:415 JLINK_ReadReg(FPS4)  returns 0x00000000 (0000ms, 0616ms total)
T52A0 002:415 JLINK_ReadReg(FPS5)  returns 0x00000000 (0000ms, 0616ms total)
T52A0 002:415 JLINK_ReadReg(FPS6)  returns 0x00000000 (0000ms, 0616ms total)
T52A0 002:415 JLINK_ReadReg(FPS7)  returns 0x00000000 (0000ms, 0616ms total)
T52A0 002:415 JLINK_ReadReg(FPS8)  returns 0x00000000 (0001ms, 0617ms total)
T52A0 002:416 JLINK_ReadReg(FPS9)  returns 0x00000000 (0000ms, 0617ms total)
T52A0 002:416 JLINK_ReadReg(FPS10)  returns 0x00000000 (0000ms, 0617ms total)
T52A0 002:416 JLINK_ReadReg(FPS11)  returns 0x00000000 (0000ms, 0617ms total)
T52A0 002:416 JLINK_ReadReg(FPS12)  returns 0x00000000 (0000ms, 0617ms total)
T52A0 002:416 JLINK_ReadReg(FPS13)  returns 0x00000000 (0000ms, 0617ms total)
T52A0 002:416 JLINK_ReadReg(FPS14)  returns 0x00000000 (0000ms, 0617ms total)
T52A0 002:416 JLINK_ReadReg(FPS15)  returns 0x00000000 (0000ms, 0617ms total)
T52A0 002:416 JLINK_ReadReg(FPS16)  returns 0x00000000 (0000ms, 0617ms total)
T52A0 002:416 JLINK_ReadReg(FPS17)  returns 0x00000000 (0000ms, 0617ms total)
T52A0 002:416 JLINK_ReadReg(FPS18)  returns 0x00000000 (0000ms, 0617ms total)
T52A0 002:416 JLINK_ReadReg(FPS19)  returns 0x00000000 (0000ms, 0617ms total)
T52A0 002:416 JLINK_ReadReg(FPS20)  returns 0x00000000 (0000ms, 0617ms total)
T52A0 002:416 JLINK_ReadReg(FPS21)  returns 0x00000000 (0000ms, 0617ms total)
T52A0 002:416 JLINK_ReadReg(FPS22)  returns 0x00000000 (0000ms, 0617ms total)
T52A0 002:416 JLINK_ReadReg(FPS23)  returns 0x00000000 (0000ms, 0617ms total)
T52A0 002:416 JLINK_ReadReg(FPS24)  returns 0x00000000 (0000ms, 0617ms total)
T52A0 002:416 JLINK_ReadReg(FPS25)  returns 0x00000000 (0000ms, 0617ms total)
T52A0 002:416 JLINK_ReadReg(FPS26)  returns 0x00000000 (0000ms, 0617ms total)
T52A0 002:416 JLINK_ReadReg(FPS27)  returns 0x00000000 (0000ms, 0617ms total)
T52A0 002:416 JLINK_ReadReg(FPS28)  returns 0x00000000 (0000ms, 0617ms total)
T52A0 002:416 JLINK_ReadReg(FPS29)  returns 0x00000000 (0000ms, 0617ms total)
T52A0 002:416 JLINK_ReadReg(FPS30)  returns 0x00000000 (0000ms, 0617ms total)
T52A0 002:416 JLINK_ReadReg(FPS31)  returns 0x00000000 (0000ms, 0617ms total)
T2BDC 002:419 JLINK_ReadMem (0x20000000, 0x0002 Bytes, ...) -- CPU_ReadMem(64 bytes @ 0x20000000) -- Updating C cache (64 bytes @ 0x20000000) -- Read from C cache (2 bytes @ 0x20000000) - Data: 00 00  returns 0x00 (0001ms, 0618ms total)
T2BDC 002:422 JLINK_ReadMem (0x08000238, 0x003C Bytes, ...) -- CPU_ReadMem(128 bytes @ 0x08000200) -- Updating C cache (128 bytes @ 0x08000200) -- Read from C cache (60 bytes @ 0x08000238) - Data: 70 47 00 F0 79 F8 1C 4C 4F F4 00 45 29 46 20 46 ...  returns 0x00 (0002ms, 0620ms total)
T2BDC 002:424 JLINK_ReadMem (0x08000230, 0x003C Bytes, ...) -- Read from C cache (60 bytes @ 0x08000230) - Data: 00 E0 40 1E 00 28 FC D1 70 47 00 F0 79 F8 1C 4C ...  returns 0x00 (0000ms, 0620ms total)
T2BDC 002:457 JLINK_ReadMem (0x08000274, 0x003C Bytes, ...) -- CPU_ReadMem(64 bytes @ 0x08000280) -- Updating C cache (64 bytes @ 0x08000280) -- Read from C cache (60 bytes @ 0x08000274) - Data: 4F F4 80 76 31 46 20 46 00 F0 A9 FA 29 46 20 46 ...  returns 0x00 (0001ms, 0621ms total)
T52A0 004:169 JLINK_Step() -- Read from C cache (2 bytes @ 0x0800023A) -- CPU_ReadMem(4 bytes @ 0xE0001004) -- Read from C cache (2 bytes @ 0x0800023C) -- Simulated  returns 0x00 (0001ms, 0622ms total)
T52A0 004:170 JLINK_ReadReg(R15 (PC))  returns 0x08000330 (0000ms, 0622ms total)
T52A0 004:170 JLINK_ReadReg(XPSR)  returns 0x21000000 (0000ms, 0622ms total)
T52A0 004:170 JLINK_SetBPEx(Addr = 0x0800023E, Type = 0xFFFFFFF2)  returns 0x00000002 (0000ms, 0622ms total)
T52A0 004:170 JLINK_SetBPEx(Addr = 0x0800023A, Type = 0xFFFFFFF2)  returns 0x00000003 (0000ms, 0622ms total)
T52A0 004:170 JLINK_Go() -- CPU_WriteMem(4 bytes @ 0xE0002000) -- CPU_WriteMem(4 bytes @ 0xE0002000) -- CPU_WriteMem(4 bytes @ 0xE0002008) -- CPU_WriteMem(4 bytes @ 0xE000200C) -- CPU_WriteMem(4 bytes @ 0xE0001004) (0003ms, 0625ms total)
T52A0 004:274 JLINK_IsHalted()  returns TRUE (0002ms, 0627ms total)
T52A0 004:276 JLINK_Halt()  returns 0x00 (0000ms, 0625ms total)
T52A0 004:276 JLINK_IsHalted()  returns TRUE (0000ms, 0625ms total)
T52A0 004:276 JLINK_IsHalted()  returns TRUE (0000ms, 0625ms total)
T52A0 004:276 JLINK_IsHalted()  returns TRUE (0000ms, 0625ms total)
T52A0 004:276 JLINK_ReadReg(R15 (PC))  returns 0x0800023E (0000ms, 0625ms total)
T52A0 004:276 JLINK_ReadReg(XPSR)  returns 0x61000000 (0000ms, 0625ms total)
T52A0 004:276 JLINK_ClrBPEx(BPHandle = 0x00000002)  returns 0x00 (0000ms, 0625ms total)
T52A0 004:276 JLINK_ClrBPEx(BPHandle = 0x00000003)  returns 0x00 (0000ms, 0625ms total)
T52A0 004:276 JLINK_ReadMemU32(0xE000ED30, 0x0001 Items, ...) -- CPU_ReadMem(4 bytes @ 0xE000ED30) - Data: 03 00 00 00  returns 0x01 (0000ms, 0625ms total)
T52A0 004:276 JLINK_ReadMemU32(0xE0001028, 0x0001 Items, ...) -- CPU_ReadMem(4 bytes @ 0xE0001028) - Data: 00 00 00 00  returns 0x01 (0001ms, 0626ms total)
T52A0 004:277 JLINK_ReadMemU32(0xE0001038, 0x0001 Items, ...) -- CPU_ReadMem(4 bytes @ 0xE0001038) - Data: 00 02 00 00  returns 0x01 (0000ms, 0626ms total)
T52A0 004:277 JLINK_ReadMemU32(0xE0001048, 0x0001 Items, ...) -- CPU_ReadMem(4 bytes @ 0xE0001048) - Data: 00 00 00 00  returns 0x01 (0001ms, 0627ms total)
T52A0 004:278 JLINK_ReadMemU32(0xE0001058, 0x0001 Items, ...) -- CPU_ReadMem(4 bytes @ 0xE0001058) - Data: 00 00 00 00  returns 0x01 (0000ms, 0627ms total)
T52A0 004:278 JLINK_ReadReg(R0)  returns 0x40020400 (0000ms, 0627ms total)
T52A0 004:278 JLINK_ReadReg(R1)  returns 0x20000678 (0000ms, 0627ms total)
T52A0 004:278 JLINK_ReadReg(R2)  returns 0x00008000 (0000ms, 0627ms total)
T52A0 004:278 JLINK_ReadReg(R3)  returns 0x01000301 (0000ms, 0627ms total)
T52A0 004:278 JLINK_ReadReg(R4)  returns 0x00000000 (0000ms, 0627ms total)
T52A0 004:278 JLINK_ReadReg(R5)  returns 0x2000002C (0000ms, 0627ms total)
T52A0 004:278 JLINK_ReadReg(R6)  returns 0x00000000 (0000ms, 0627ms total)
T52A0 004:278 JLINK_ReadReg(R7)  returns 0x00000000 (0000ms, 0627ms total)
T52A0 004:278 JLINK_ReadReg(R8)  returns 0x00000000 (0000ms, 0627ms total)
T52A0 004:278 JLINK_ReadReg(R9)  returns 0x00000000 (0000ms, 0627ms total)
T52A0 004:278 JLINK_ReadReg(R10)  returns 0x080012B4 (0000ms, 0627ms total)
T52A0 004:278 JLINK_ReadReg(R11)  returns 0x00000000 (0001ms, 0628ms total)
T52A0 004:279 JLINK_ReadReg(R12)  returns 0x00000003 (0000ms, 0628ms total)
T52A0 004:279 JLINK_ReadReg(R13 (SP))  returns 0x20000690 (0000ms, 0628ms total)
T52A0 004:279 JLINK_ReadReg(R14)  returns 0x000000C0 (0000ms, 0628ms total)
T52A0 004:279 JLINK_ReadReg(R15 (PC))  returns 0x0800023E (0000ms, 0628ms total)
T52A0 004:279 JLINK_ReadReg(XPSR)  returns 0x61000000 (0000ms, 0628ms total)
T52A0 004:279 JLINK_ReadReg(MSP)  returns 0x20000690 (0000ms, 0628ms total)
T52A0 004:279 JLINK_ReadReg(PSP)  returns 0x00000000 (0000ms, 0628ms total)
T52A0 004:279 JLINK_ReadReg(CFBP)  returns 0x04000000 (0000ms, 0628ms total)
T52A0 004:279 JLINK_ReadReg(FPSCR)  returns 0x03000000 (0003ms, 0631ms total)
T52A0 004:282 JLINK_ReadReg(FPS0)  returns 0x00000000 (0000ms, 0631ms total)
T52A0 004:282 JLINK_ReadReg(FPS1)  returns 0x00000000 (0000ms, 0631ms total)
T52A0 004:282 JLINK_ReadReg(FPS2)  returns 0x00000000 (0000ms, 0631ms total)
T52A0 004:282 JLINK_ReadReg(FPS3)  returns 0x00000000 (0000ms, 0631ms total)
T52A0 004:282 JLINK_ReadReg(FPS4)  returns 0x00000000 (0000ms, 0631ms total)
T52A0 004:282 JLINK_ReadReg(FPS5)  returns 0x00000000 (0000ms, 0631ms total)
T52A0 004:282 JLINK_ReadReg(FPS6)  returns 0x00000000 (0000ms, 0631ms total)
T52A0 004:282 JLINK_ReadReg(FPS7)  returns 0x00000000 (0000ms, 0631ms total)
T52A0 004:282 JLINK_ReadReg(FPS8)  returns 0x00000000 (0000ms, 0631ms total)
T52A0 004:282 JLINK_ReadReg(FPS9)  returns 0x00000000 (0000ms, 0631ms total)
T52A0 004:282 JLINK_ReadReg(FPS10)  returns 0x00000000 (0001ms, 0632ms total)
T52A0 004:283 JLINK_ReadReg(FPS11)  returns 0x00000000 (0000ms, 0632ms total)
T52A0 004:283 JLINK_ReadReg(FPS12)  returns 0x00000000 (0000ms, 0632ms total)
T52A0 004:283 JLINK_ReadReg(FPS13)  returns 0x00000000 (0000ms, 0632ms total)
T52A0 004:283 JLINK_ReadReg(FPS14)  returns 0x00000000 (0000ms, 0632ms total)
T52A0 004:283 JLINK_ReadReg(FPS15)  returns 0x00000000 (0000ms, 0632ms total)
T52A0 004:283 JLINK_ReadReg(FPS16)  returns 0x00000000 (0000ms, 0632ms total)
T52A0 004:283 JLINK_ReadReg(FPS17)  returns 0x00000000 (0000ms, 0632ms total)
T52A0 004:283 JLINK_ReadReg(FPS18)  returns 0x00000000 (0000ms, 0632ms total)
T52A0 004:283 JLINK_ReadReg(FPS19)  returns 0x00000000 (0000ms, 0632ms total)
T52A0 004:283 JLINK_ReadReg(FPS20)  returns 0x00000000 (0000ms, 0632ms total)
T52A0 004:283 JLINK_ReadReg(FPS21)  returns 0x00000000 (0000ms, 0632ms total)
T52A0 004:283 JLINK_ReadReg(FPS22)  returns 0x00000000 (0000ms, 0632ms total)
T52A0 004:283 JLINK_ReadReg(FPS23)  returns 0x00000000 (0000ms, 0632ms total)
T52A0 004:283 JLINK_ReadReg(FPS24)  returns 0x00000000 (0000ms, 0632ms total)
T52A0 004:283 JLINK_ReadReg(FPS25)  returns 0x00000000 (0000ms, 0632ms total)
T52A0 004:283 JLINK_ReadReg(FPS26)  returns 0x00000000 (0000ms, 0632ms total)
T52A0 004:283 JLINK_ReadReg(FPS27)  returns 0x00000000 (0000ms, 0632ms total)
T52A0 004:283 JLINK_ReadReg(FPS28)  returns 0x00000000 (0000ms, 0632ms total)
T52A0 004:283 JLINK_ReadReg(FPS29)  returns 0x00000000 (0000ms, 0632ms total)
T52A0 004:283 JLINK_ReadReg(FPS30)  returns 0x00000000 (0000ms, 0632ms total)
T52A0 004:283 JLINK_ReadReg(FPS31)  returns 0x00000000 (0000ms, 0632ms total)
T2BDC 004:286 JLINK_ReadMem (0x20000000, 0x0002 Bytes, ...) -- CPU_ReadMem(64 bytes @ 0x20000000) -- Updating C cache (64 bytes @ 0x20000000) -- Read from C cache (2 bytes @ 0x20000000) - Data: 00 00  returns 0x00 (0001ms, 0633ms total)
T2BDC 004:288 JLINK_ReadMem (0x0800023E, 0x0002 Bytes, ...) -- CPU_ReadMem(64 bytes @ 0x08000200) -- Updating C cache (64 bytes @ 0x08000200) -- Read from C cache (2 bytes @ 0x0800023E) - Data: 1C 4C  returns 0x00 (0001ms, 0634ms total)
T2BDC 004:289 JLINK_ReadMem (0x08000240, 0x003C Bytes, ...) -- CPU_ReadMem(64 bytes @ 0x08000240) -- Updating C cache (64 bytes @ 0x08000240) -- Read from C cache (60 bytes @ 0x08000240) - Data: 4F F4 00 45 29 46 20 46 00 F0 C3 FA 29 46 20 46 ...  returns 0x00 (0000ms, 0634ms total)
T2BDC 004:297 JLINK_ReadMem (0x0800023A, 0x0002 Bytes, ...) -- Read from C cache (2 bytes @ 0x0800023A) - Data: 00 F0  returns 0x00 (0000ms, 0634ms total)
T2BDC 004:297 JLINK_ReadMem (0x0800023C, 0x003C Bytes, ...) -- Read from C cache (60 bytes @ 0x0800023C) - Data: 79 F8 1C 4C 4F F4 00 45 29 46 20 46 00 F0 C3 FA ...  returns 0x00 (0000ms, 0634ms total)
T52A0 005:499 JLINK_Step() -- Read from C cache (2 bytes @ 0x0800023E) -- CPU_ReadMem(4 bytes @ 0xE0001004) -- CPU_ReadMem(64 bytes @ 0x08000280) -- Updating C cache (64 bytes @ 0x08000280) -- Read from C cache (4 bytes @ 0x080002B0) -- Simulated  returns 0x00 (0002ms, 0636ms total)
T52A0 005:501 JLINK_ReadReg(R15 (PC))  returns 0x08000240 (0000ms, 0636ms total)
T52A0 005:501 JLINK_ReadReg(XPSR)  returns 0x61000000 (0000ms, 0636ms total)
T52A0 005:502 JLINK_Step() -- Read from C cache (2 bytes @ 0x08000240) -- Read from C cache (2 bytes @ 0x08000242) -- Simulated  returns 0x00 (0000ms, 0637ms total)
T52A0 005:502 JLINK_ReadReg(R15 (PC))  returns 0x08000244 (0000ms, 0637ms total)
T52A0 005:502 JLINK_ReadReg(XPSR)  returns 0x61000000 (0000ms, 0637ms total)
T52A0 005:502 JLINK_Step() -- Read from C cache (2 bytes @ 0x08000244) -- Simulated  returns 0x00 (0000ms, 0637ms total)
T52A0 005:502 JLINK_ReadReg(R15 (PC))  returns 0x08000246 (0000ms, 0637ms total)
T52A0 005:502 JLINK_ReadReg(XPSR)  returns 0x61000000 (0000ms, 0637ms total)
T52A0 005:502 JLINK_Step() -- Read from C cache (2 bytes @ 0x08000246) -- Simulated  returns 0x00 (0000ms, 0637ms total)
T52A0 005:502 JLINK_ReadReg(R15 (PC))  returns 0x08000248 (0000ms, 0637ms total)
T52A0 005:502 JLINK_ReadReg(XPSR)  returns 0x61000000 (0000ms, 0637ms total)
T52A0 005:502 JLINK_SetBPEx(Addr = 0x0800024C, Type = 0xFFFFFFF2)  returns 0x00000004 (0000ms, 0637ms total)
T52A0 005:502 JLINK_SetBPEx(Addr = 0x0800023A, Type = 0xFFFFFFF2)  returns 0x00000005 (0000ms, 0637ms total)
T52A0 005:502 JLINK_Go() -- CPU_WriteMem(4 bytes @ 0xE0002000) -- CPU_WriteMem(4 bytes @ 0xE0002000) -- CPU_WriteMem(4 bytes @ 0xE0002008) -- CPU_WriteMem(4 bytes @ 0xE0001004) (0003ms, 0640ms total)
T52A0 005:605 JLINK_IsHalted()  returns TRUE (0002ms, 0642ms total)
T52A0 005:607 JLINK_Halt()  returns 0x00 (0001ms, 0641ms total)
T52A0 005:608 JLINK_IsHalted()  returns TRUE (0000ms, 0641ms total)
T52A0 005:608 JLINK_IsHalted()  returns TRUE (0000ms, 0641ms total)
T52A0 005:608 JLINK_IsHalted()  returns TRUE (0000ms, 0641ms total)
T52A0 005:608 JLINK_ReadReg(R15 (PC))  returns 0x0800024C (0000ms, 0641ms total)
T52A0 005:608 JLINK_ReadReg(XPSR)  returns 0x61000000 (0000ms, 0641ms total)
T52A0 005:608 JLINK_ClrBPEx(BPHandle = 0x00000004)  returns 0x00 (0000ms, 0641ms total)
T52A0 005:608 JLINK_ClrBPEx(BPHandle = 0x00000005)  returns 0x00 (0000ms, 0641ms total)
T52A0 005:608 JLINK_ReadMemU32(0xE000ED30, 0x0001 Items, ...) -- CPU_ReadMem(4 bytes @ 0xE000ED30) - Data: 03 00 00 00  returns 0x01 (0000ms, 0641ms total)
T52A0 005:608 JLINK_ReadMemU32(0xE0001028, 0x0001 Items, ...) -- CPU_ReadMem(4 bytes @ 0xE0001028) - Data: 00 00 00 00  returns 0x01 (0001ms, 0642ms total)
T52A0 005:609 JLINK_ReadMemU32(0xE0001038, 0x0001 Items, ...) -- CPU_ReadMem(4 bytes @ 0xE0001038) - Data: 00 02 00 00  returns 0x01 (0000ms, 0642ms total)
T52A0 005:609 JLINK_ReadMemU32(0xE0001048, 0x0001 Items, ...) -- CPU_ReadMem(4 bytes @ 0xE0001048) - Data: 00 00 00 00  returns 0x01 (0001ms, 0643ms total)
T52A0 005:610 JLINK_ReadMemU32(0xE0001058, 0x0001 Items, ...) -- CPU_ReadMem(4 bytes @ 0xE0001058) - Data: 00 00 00 00  returns 0x01 (0000ms, 0643ms total)
T52A0 005:610 JLINK_ReadReg(R0)  returns 0x40020400 (0000ms, 0643ms total)
T52A0 005:610 JLINK_ReadReg(R1)  returns 0x00008000 (0001ms, 0644ms total)
T52A0 005:611 JLINK_ReadReg(R2)  returns 0x00008000 (0000ms, 0644ms total)
T52A0 005:611 JLINK_ReadReg(R3)  returns 0x01000301 (0000ms, 0644ms total)
T52A0 005:611 JLINK_ReadReg(R4)  returns 0x40020400 (0000ms, 0644ms total)
T52A0 005:611 JLINK_ReadReg(R5)  returns 0x00008000 (0000ms, 0644ms total)
T52A0 005:611 JLINK_ReadReg(R6)  returns 0x00000000 (0000ms, 0644ms total)
T52A0 005:611 JLINK_ReadReg(R7)  returns 0x00000000 (0000ms, 0644ms total)
T52A0 005:611 JLINK_ReadReg(R8)  returns 0x00000000 (0000ms, 0644ms total)
T52A0 005:611 JLINK_ReadReg(R9)  returns 0x00000000 (0000ms, 0644ms total)
T52A0 005:611 JLINK_ReadReg(R10)  returns 0x080012B4 (0000ms, 0644ms total)
T52A0 005:611 JLINK_ReadReg(R11)  returns 0x00000000 (0000ms, 0644ms total)
T52A0 005:611 JLINK_ReadReg(R12)  returns 0x00000003 (0000ms, 0644ms total)
T52A0 005:611 JLINK_ReadReg(R13 (SP))  returns 0x20000690 (0000ms, 0644ms total)
T52A0 005:611 JLINK_ReadReg(R14)  returns 0x0800024D (0000ms, 0644ms total)
T52A0 005:611 JLINK_ReadReg(R15 (PC))  returns 0x0800024C (0000ms, 0644ms total)
T52A0 005:611 JLINK_ReadReg(XPSR)  returns 0x61000000 (0000ms, 0644ms total)
T52A0 005:611 JLINK_ReadReg(MSP)  returns 0x20000690 (0001ms, 0645ms total)
T52A0 005:612 JLINK_ReadReg(PSP)  returns 0x00000000 (0000ms, 0645ms total)
T52A0 005:612 JLINK_ReadReg(CFBP)  returns 0x04000000 (0000ms, 0645ms total)
T52A0 005:612 JLINK_ReadReg(FPSCR)  returns 0x03000000 (0003ms, 0648ms total)
T52A0 005:615 JLINK_ReadReg(FPS0)  returns 0x00000000 (0000ms, 0648ms total)
T52A0 005:615 JLINK_ReadReg(FPS1)  returns 0x00000000 (0000ms, 0648ms total)
T52A0 005:615 JLINK_ReadReg(FPS2)  returns 0x00000000 (0000ms, 0648ms total)
T52A0 005:615 JLINK_ReadReg(FPS3)  returns 0x00000000 (0000ms, 0648ms total)
T52A0 005:615 JLINK_ReadReg(FPS4)  returns 0x00000000 (0000ms, 0648ms total)
T52A0 005:615 JLINK_ReadReg(FPS5)  returns 0x00000000 (0000ms, 0648ms total)
T52A0 005:616 JLINK_ReadReg(FPS6)  returns 0x00000000 (0000ms, 0649ms total)
T52A0 005:616 JLINK_ReadReg(FPS7)  returns 0x00000000 (0000ms, 0649ms total)
T52A0 005:616 JLINK_ReadReg(FPS8)  returns 0x00000000 (0000ms, 0649ms total)
T52A0 005:616 JLINK_ReadReg(FPS9)  returns 0x00000000 (0000ms, 0649ms total)
T52A0 005:616 JLINK_ReadReg(FPS10)  returns 0x00000000 (0000ms, 0649ms total)
T52A0 005:616 JLINK_ReadReg(FPS11)  returns 0x00000000 (0000ms, 0649ms total)
T52A0 005:616 JLINK_ReadReg(FPS12)  returns 0x00000000 (0000ms, 0649ms total)
T52A0 005:616 JLINK_ReadReg(FPS13)  returns 0x00000000 (0000ms, 0649ms total)
T52A0 005:616 JLINK_ReadReg(FPS14)  returns 0x00000000 (0000ms, 0649ms total)
T52A0 005:616 JLINK_ReadReg(FPS15)  returns 0x00000000 (0000ms, 0649ms total)
T52A0 005:616 JLINK_ReadReg(FPS16)  returns 0x00000000 (0000ms, 0649ms total)
T52A0 005:616 JLINK_ReadReg(FPS17)  returns 0x00000000 (0000ms, 0649ms total)
T52A0 005:616 JLINK_ReadReg(FPS18)  returns 0x00000000 (0000ms, 0649ms total)
T52A0 005:616 JLINK_ReadReg(FPS19)  returns 0x00000000 (0000ms, 0649ms total)
T52A0 005:616 JLINK_ReadReg(FPS20)  returns 0x00000000 (0001ms, 0650ms total)
T52A0 005:617 JLINK_ReadReg(FPS21)  returns 0x00000000 (0000ms, 0650ms total)
T52A0 005:617 JLINK_ReadReg(FPS22)  returns 0x00000000 (0000ms, 0650ms total)
T52A0 005:617 JLINK_ReadReg(FPS23)  returns 0x00000000 (0000ms, 0650ms total)
T52A0 005:617 JLINK_ReadReg(FPS24)  returns 0x00000000 (0000ms, 0650ms total)
T52A0 005:617 JLINK_ReadReg(FPS25)  returns 0x00000000 (0000ms, 0650ms total)
T52A0 005:617 JLINK_ReadReg(FPS26)  returns 0x00000000 (0000ms, 0650ms total)
T52A0 005:617 JLINK_ReadReg(FPS27)  returns 0x00000000 (0000ms, 0650ms total)
T52A0 005:617 JLINK_ReadReg(FPS28)  returns 0x00000000 (0000ms, 0650ms total)
T52A0 005:617 JLINK_ReadReg(FPS29)  returns 0x00000000 (0000ms, 0650ms total)
T52A0 005:617 JLINK_ReadReg(FPS30)  returns 0x00000000 (0000ms, 0650ms total)
T52A0 005:617 JLINK_ReadReg(FPS31)  returns 0x00000000 (0000ms, 0650ms total)
T2BDC 005:623 JLINK_ReadMem (0x20000000, 0x0002 Bytes, ...) -- CPU_ReadMem(64 bytes @ 0x20000000) -- Updating C cache (64 bytes @ 0x20000000) -- Read from C cache (2 bytes @ 0x20000000) - Data: 00 00  returns 0x00 (0001ms, 0651ms total)
T2BDC 005:627 JLINK_ReadMem (0x0800023E, 0x0002 Bytes, ...) -- CPU_ReadMem(64 bytes @ 0x08000200) -- Updating C cache (64 bytes @ 0x08000200) -- Read from C cache (2 bytes @ 0x0800023E) - Data: 1C 4C  returns 0x00 (0002ms, 0653ms total)
T2BDC 005:629 JLINK_ReadMem (0x08000240, 0x003C Bytes, ...) -- CPU_ReadMem(64 bytes @ 0x08000240) -- Updating C cache (64 bytes @ 0x08000240) -- Read from C cache (60 bytes @ 0x08000240) - Data: 4F F4 00 45 29 46 20 46 00 F0 C3 FA 29 46 20 46 ...  returns 0x00 (0001ms, 0654ms total)
T52A0 006:813 JLINK_Step() -- Read from C cache (2 bytes @ 0x0800024C) -- CPU_ReadMem(4 bytes @ 0xE0001004) -- Simulated  returns 0x00 (0002ms, 0656ms total)
T52A0 006:815 JLINK_ReadReg(R15 (PC))  returns 0x0800024E (0000ms, 0656ms total)
T52A0 006:815 JLINK_ReadReg(XPSR)  returns 0x61000000 (0000ms, 0656ms total)
T52A0 006:815 JLINK_Step() -- Read from C cache (2 bytes @ 0x0800024E) -- Simulated  returns 0x00 (0000ms, 0656ms total)
T52A0 006:815 JLINK_ReadReg(R15 (PC))  returns 0x08000250 (0000ms, 0656ms total)
T52A0 006:815 JLINK_ReadReg(XPSR)  returns 0x61000000 (0000ms, 0656ms total)
T52A0 006:815 JLINK_SetBPEx(Addr = 0x08000254, Type = 0xFFFFFFF2)  returns 0x00000006 (0000ms, 0656ms total)
T52A0 006:815 JLINK_SetBPEx(Addr = 0x0800023A, Type = 0xFFFFFFF2)  returns 0x00000007 (0000ms, 0656ms total)
T52A0 006:815 JLINK_Go() -- CPU_WriteMem(4 bytes @ 0xE0002000) -- CPU_WriteMem(4 bytes @ 0xE0002000) -- CPU_WriteMem(4 bytes @ 0xE0002008) -- CPU_WriteMem(4 bytes @ 0xE0001004) (0003ms, 0659ms total)
T52A0 006:919 JLINK_IsHalted()  returns TRUE (0002ms, 0661ms total)
T52A0 006:921 JLINK_Halt()  returns 0x00 (0000ms, 0659ms total)
T52A0 006:921 JLINK_IsHalted()  returns TRUE (0000ms, 0659ms total)
T52A0 006:921 JLINK_IsHalted()  returns TRUE (0000ms, 0659ms total)
T52A0 006:921 JLINK_IsHalted()  returns TRUE (0000ms, 0659ms total)
T52A0 006:921 JLINK_ReadReg(R15 (PC))  returns 0x08000254 (0000ms, 0659ms total)
T52A0 006:921 JLINK_ReadReg(XPSR)  returns 0x61000000 (0000ms, 0659ms total)
T52A0 006:921 JLINK_ClrBPEx(BPHandle = 0x00000006)  returns 0x00 (0000ms, 0659ms total)
T52A0 006:921 JLINK_ClrBPEx(BPHandle = 0x00000007)  returns 0x00 (0000ms, 0659ms total)
T52A0 006:921 JLINK_ReadMemU32(0xE000ED30, 0x0001 Items, ...) -- CPU_ReadMem(4 bytes @ 0xE000ED30) - Data: 03 00 00 00  returns 0x01 (0001ms, 0660ms total)
T52A0 006:922 JLINK_ReadMemU32(0xE0001028, 0x0001 Items, ...) -- CPU_ReadMem(4 bytes @ 0xE0001028) - Data: 00 00 00 00  returns 0x01 (0000ms, 0660ms total)
T52A0 006:922 JLINK_ReadMemU32(0xE0001038, 0x0001 Items, ...) -- CPU_ReadMem(4 bytes @ 0xE0001038) - Data: 00 02 00 00  returns 0x01 (0001ms, 0661ms total)
T52A0 006:923 JLINK_ReadMemU32(0xE0001048, 0x0001 Items, ...) -- CPU_ReadMem(4 bytes @ 0xE0001048) - Data: 00 00 00 00  returns 0x01 (0000ms, 0661ms total)
T52A0 006:923 JLINK_ReadMemU32(0xE0001058, 0x0001 Items, ...) -- CPU_ReadMem(4 bytes @ 0xE0001058) - Data: 00 00 00 00  returns 0x01 (0001ms, 0662ms total)
T52A0 006:924 JLINK_ReadReg(R0)  returns 0x40020400 (0000ms, 0662ms total)
T52A0 006:924 JLINK_ReadReg(R1)  returns 0x00008000 (0000ms, 0662ms total)
T52A0 006:924 JLINK_ReadReg(R2)  returns 0x00008000 (0000ms, 0662ms total)
T52A0 006:924 JLINK_ReadReg(R3)  returns 0x01000301 (0000ms, 0662ms total)
T52A0 006:924 JLINK_ReadReg(R4)  returns 0x40020400 (0000ms, 0662ms total)
T52A0 006:924 JLINK_ReadReg(R5)  returns 0x00008000 (0000ms, 0662ms total)
T52A0 006:924 JLINK_ReadReg(R6)  returns 0x00000000 (0000ms, 0662ms total)
T52A0 006:924 JLINK_ReadReg(R7)  returns 0x00000000 (0000ms, 0662ms total)
T52A0 006:924 JLINK_ReadReg(R8)  returns 0x00000000 (0000ms, 0662ms total)
T52A0 006:924 JLINK_ReadReg(R9)  returns 0x00000000 (0000ms, 0662ms total)
T52A0 006:924 JLINK_ReadReg(R10)  returns 0x080012B4 (0000ms, 0662ms total)
T52A0 006:924 JLINK_ReadReg(R11)  returns 0x00000000 (0001ms, 0663ms total)
T52A0 006:925 JLINK_ReadReg(R12)  returns 0x00000003 (0000ms, 0663ms total)
T52A0 006:925 JLINK_ReadReg(R13 (SP))  returns 0x20000690 (0000ms, 0663ms total)
T52A0 006:925 JLINK_ReadReg(R14)  returns 0x08000255 (0000ms, 0663ms total)
T52A0 006:925 JLINK_ReadReg(R15 (PC))  returns 0x08000254 (0000ms, 0663ms total)
T52A0 006:925 JLINK_ReadReg(XPSR)  returns 0x61000000 (0000ms, 0663ms total)
T52A0 006:925 JLINK_ReadReg(MSP)  returns 0x20000690 (0000ms, 0663ms total)
T52A0 006:925 JLINK_ReadReg(PSP)  returns 0x00000000 (0000ms, 0663ms total)
T52A0 006:925 JLINK_ReadReg(CFBP)  returns 0x04000000 (0000ms, 0663ms total)
T52A0 006:925 JLINK_ReadReg(FPSCR)  returns 0x03000000 (0003ms, 0666ms total)
T52A0 006:928 JLINK_ReadReg(FPS0)  returns 0x00000000 (0000ms, 0666ms total)
T52A0 006:929 JLINK_ReadReg(FPS1)  returns 0x00000000 (0000ms, 0667ms total)
T52A0 006:929 JLINK_ReadReg(FPS2)  returns 0x00000000 (0000ms, 0667ms total)
T52A0 006:929 JLINK_ReadReg(FPS3)  returns 0x00000000 (0000ms, 0667ms total)
T52A0 006:929 JLINK_ReadReg(FPS4)  returns 0x00000000 (0000ms, 0667ms total)
T52A0 006:929 JLINK_ReadReg(FPS5)  returns 0x00000000 (0000ms, 0667ms total)
T52A0 006:929 JLINK_ReadReg(FPS6)  returns 0x00000000 (0000ms, 0667ms total)
T52A0 006:929 JLINK_ReadReg(FPS7)  returns 0x00000000 (0000ms, 0667ms total)
T52A0 006:929 JLINK_ReadReg(FPS8)  returns 0x00000000 (0000ms, 0667ms total)
T52A0 006:929 JLINK_ReadReg(FPS9)  returns 0x00000000 (0000ms, 0667ms total)
T52A0 006:929 JLINK_ReadReg(FPS10)  returns 0x00000000 (0000ms, 0667ms total)
T52A0 006:929 JLINK_ReadReg(FPS11)  returns 0x00000000 (0000ms, 0667ms total)
T52A0 006:929 JLINK_ReadReg(FPS12)  returns 0x00000000 (0000ms, 0667ms total)
T52A0 006:929 JLINK_ReadReg(FPS13)  returns 0x00000000 (0000ms, 0667ms total)
T52A0 006:929 JLINK_ReadReg(FPS14)  returns 0x00000000 (0000ms, 0667ms total)
T52A0 006:929 JLINK_ReadReg(FPS15)  returns 0x00000000 (0000ms, 0667ms total)
T52A0 006:929 JLINK_ReadReg(FPS16)  returns 0x00000000 (0000ms, 0667ms total)
T52A0 006:929 JLINK_ReadReg(FPS17)  returns 0x00000000 (0001ms, 0668ms total)
T52A0 006:930 JLINK_ReadReg(FPS18)  returns 0x00000000 (0000ms, 0668ms total)
T52A0 006:930 JLINK_ReadReg(FPS19)  returns 0x00000000 (0000ms, 0668ms total)
T52A0 006:930 JLINK_ReadReg(FPS20)  returns 0x00000000 (0000ms, 0668ms total)
T52A0 006:930 JLINK_ReadReg(FPS21)  returns 0x00000000 (0000ms, 0668ms total)
T52A0 006:930 JLINK_ReadReg(FPS22)  returns 0x00000000 (0000ms, 0668ms total)
T52A0 006:930 JLINK_ReadReg(FPS23)  returns 0x00000000 (0000ms, 0668ms total)
T52A0 006:930 JLINK_ReadReg(FPS24)  returns 0x00000000 (0000ms, 0668ms total)
T52A0 006:930 JLINK_ReadReg(FPS25)  returns 0x00000000 (0000ms, 0668ms total)
T52A0 006:930 JLINK_ReadReg(FPS26)  returns 0x00000000 (0000ms, 0668ms total)
T52A0 006:930 JLINK_ReadReg(FPS27)  returns 0x00000000 (0000ms, 0668ms total)
T52A0 006:930 JLINK_ReadReg(FPS28)  returns 0x00000000 (0000ms, 0668ms total)
T52A0 006:930 JLINK_ReadReg(FPS29)  returns 0x00000000 (0000ms, 0668ms total)
T52A0 006:930 JLINK_ReadReg(FPS30)  returns 0x00000000 (0000ms, 0668ms total)
T52A0 006:930 JLINK_ReadReg(FPS31)  returns 0x00000000 (0000ms, 0668ms total)
T2BDC 006:937 JLINK_ReadMem (0x20000000, 0x0002 Bytes, ...) -- CPU_ReadMem(64 bytes @ 0x20000000) -- Updating C cache (64 bytes @ 0x20000000) -- Read from C cache (2 bytes @ 0x20000000) - Data: 00 00  returns 0x00 (0001ms, 0669ms total)
T2BDC 006:953 JLINK_ReadMem (0x08000244, 0x003C Bytes, ...) -- CPU_ReadMem(64 bytes @ 0x08000240) -- Updating C cache (64 bytes @ 0x08000240) -- Read from C cache (60 bytes @ 0x08000244) - Data: 29 46 20 46 00 F0 C3 FA 29 46 20 46 00 F0 C1 FA ...  returns 0x00 (0001ms, 0670ms total)
T52A0 007:839 JLINK_Step() -- Read from C cache (2 bytes @ 0x08000254) -- CPU_ReadMem(4 bytes @ 0xE0001004) -- Simulated  returns 0x00 (0001ms, 0671ms total)
T52A0 007:840 JLINK_ReadReg(R15 (PC))  returns 0x08000256 (0000ms, 0671ms total)
T52A0 007:840 JLINK_ReadReg(XPSR)  returns 0x61000000 (0000ms, 0671ms total)
T52A0 007:840 JLINK_Step() -- Read from C cache (2 bytes @ 0x08000256) -- Simulated  returns 0x00 (0000ms, 0671ms total)
T52A0 007:840 JLINK_ReadReg(R15 (PC))  returns 0x08000258 (0000ms, 0671ms total)
T52A0 007:840 JLINK_ReadReg(XPSR)  returns 0x61000000 (0000ms, 0671ms total)
T52A0 007:840 JLINK_SetBPEx(Addr = 0x0800025C, Type = 0xFFFFFFF2)  returns 0x00000008 (0000ms, 0671ms total)
T52A0 007:840 JLINK_SetBPEx(Addr = 0x0800023A, Type = 0xFFFFFFF2)  returns 0x00000009 (0000ms, 0671ms total)
T52A0 007:840 JLINK_Go() -- CPU_WriteMem(4 bytes @ 0xE0002000) -- CPU_WriteMem(4 bytes @ 0xE0002000) -- CPU_WriteMem(4 bytes @ 0xE0002008) -- CPU_WriteMem(4 bytes @ 0xE0001004) (0003ms, 0674ms total)
T52A0 007:944 JLINK_IsHalted()  returns TRUE (0002ms, 0676ms total)
T52A0 007:946 JLINK_Halt()  returns 0x00 (0000ms, 0674ms total)
T52A0 007:946 JLINK_IsHalted()  returns TRUE (0000ms, 0674ms total)
T52A0 007:946 JLINK_IsHalted()  returns TRUE (0000ms, 0674ms total)
T52A0 007:946 JLINK_IsHalted()  returns TRUE (0000ms, 0674ms total)
T52A0 007:946 JLINK_ReadReg(R15 (PC))  returns 0x0800025C (0000ms, 0674ms total)
T52A0 007:946 JLINK_ReadReg(XPSR)  returns 0x61000000 (0000ms, 0674ms total)
T52A0 007:946 JLINK_ClrBPEx(BPHandle = 0x00000008)  returns 0x00 (0000ms, 0674ms total)
T52A0 007:946 JLINK_ClrBPEx(BPHandle = 0x00000009)  returns 0x00 (0000ms, 0674ms total)
T52A0 007:946 JLINK_ReadMemU32(0xE000ED30, 0x0001 Items, ...) -- CPU_ReadMem(4 bytes @ 0xE000ED30) - Data: 03 00 00 00  returns 0x01 (0001ms, 0675ms total)
T52A0 007:947 JLINK_ReadMemU32(0xE0001028, 0x0001 Items, ...) -- CPU_ReadMem(4 bytes @ 0xE0001028) - Data: 00 00 00 00  returns 0x01 (0001ms, 0676ms total)
T52A0 007:948 JLINK_ReadMemU32(0xE0001038, 0x0001 Items, ...) -- CPU_ReadMem(4 bytes @ 0xE0001038) - Data: 00 02 00 00  returns 0x01 (0000ms, 0676ms total)
T52A0 007:948 JLINK_ReadMemU32(0xE0001048, 0x0001 Items, ...) -- CPU_ReadMem(4 bytes @ 0xE0001048) - Data: 00 00 00 00  returns 0x01 (0001ms, 0677ms total)
T52A0 007:949 JLINK_ReadMemU32(0xE0001058, 0x0001 Items, ...) -- CPU_ReadMem(4 bytes @ 0xE0001058) - Data: 00 00 00 00  returns 0x01 (0000ms, 0677ms total)
T52A0 007:949 JLINK_ReadReg(R0)  returns 0x40020400 (0000ms, 0677ms total)
T52A0 007:949 JLINK_ReadReg(R1)  returns 0x00008000 (0000ms, 0677ms total)
T52A0 007:949 JLINK_ReadReg(R2)  returns 0x00008000 (0000ms, 0677ms total)
T52A0 007:949 JLINK_ReadReg(R3)  returns 0x01000301 (0000ms, 0677ms total)
T52A0 007:949 JLINK_ReadReg(R4)  returns 0x40020400 (0000ms, 0677ms total)
T52A0 007:949 JLINK_ReadReg(R5)  returns 0x00008000 (0000ms, 0677ms total)
T52A0 007:949 JLINK_ReadReg(R6)  returns 0x00000000 (0001ms, 0678ms total)
T52A0 007:950 JLINK_ReadReg(R7)  returns 0x00000000 (0000ms, 0678ms total)
T52A0 007:950 JLINK_ReadReg(R8)  returns 0x00000000 (0000ms, 0678ms total)
T52A0 007:950 JLINK_ReadReg(R9)  returns 0x00000000 (0000ms, 0678ms total)
T52A0 007:950 JLINK_ReadReg(R10)  returns 0x080012B4 (0000ms, 0678ms total)
T52A0 007:950 JLINK_ReadReg(R11)  returns 0x00000000 (0000ms, 0678ms total)
T52A0 007:950 JLINK_ReadReg(R12)  returns 0x00000003 (0000ms, 0678ms total)
T52A0 007:950 JLINK_ReadReg(R13 (SP))  returns 0x20000690 (0000ms, 0678ms total)
T52A0 007:950 JLINK_ReadReg(R14)  returns 0x0800025D (0000ms, 0678ms total)
T52A0 007:950 JLINK_ReadReg(R15 (PC))  returns 0x0800025C (0000ms, 0678ms total)
T52A0 007:950 JLINK_ReadReg(XPSR)  returns 0x61000000 (0000ms, 0678ms total)
T52A0 007:950 JLINK_ReadReg(MSP)  returns 0x20000690 (0000ms, 0678ms total)
T52A0 007:950 JLINK_ReadReg(PSP)  returns 0x00000000 (0000ms, 0678ms total)
T52A0 007:950 JLINK_ReadReg(CFBP)  returns 0x04000000 (0000ms, 0678ms total)
T52A0 007:950 JLINK_ReadReg(FPSCR)  returns 0x03000000 (0004ms, 0682ms total)
T52A0 007:954 JLINK_ReadReg(FPS0)  returns 0x00000000 (0000ms, 0682ms total)
T52A0 007:954 JLINK_ReadReg(FPS1)  returns 0x00000000 (0000ms, 0682ms total)
T52A0 007:954 JLINK_ReadReg(FPS2)  returns 0x00000000 (0000ms, 0682ms total)
T52A0 007:954 JLINK_ReadReg(FPS3)  returns 0x00000000 (0000ms, 0682ms total)
T52A0 007:954 JLINK_ReadReg(FPS4)  returns 0x00000000 (0000ms, 0682ms total)
T52A0 007:954 JLINK_ReadReg(FPS5)  returns 0x00000000 (0000ms, 0682ms total)
T52A0 007:954 JLINK_ReadReg(FPS6)  returns 0x00000000 (0000ms, 0682ms total)
T52A0 007:954 JLINK_ReadReg(FPS7)  returns 0x00000000 (0000ms, 0682ms total)
T52A0 007:954 JLINK_ReadReg(FPS8)  returns 0x00000000 (0000ms, 0682ms total)
T52A0 007:954 JLINK_ReadReg(FPS9)  returns 0x00000000 (0001ms, 0683ms total)
T52A0 007:955 JLINK_ReadReg(FPS10)  returns 0x00000000 (0000ms, 0683ms total)
T52A0 007:955 JLINK_ReadReg(FPS11)  returns 0x00000000 (0000ms, 0683ms total)
T52A0 007:955 JLINK_ReadReg(FPS12)  returns 0x00000000 (0000ms, 0683ms total)
T52A0 007:955 JLINK_ReadReg(FPS13)  returns 0x00000000 (0000ms, 0683ms total)
T52A0 007:955 JLINK_ReadReg(FPS14)  returns 0x00000000 (0000ms, 0683ms total)
T52A0 007:955 JLINK_ReadReg(FPS15)  returns 0x00000000 (0000ms, 0683ms total)
T52A0 007:955 JLINK_ReadReg(FPS16)  returns 0x00000000 (0000ms, 0683ms total)
T52A0 007:955 JLINK_ReadReg(FPS17)  returns 0x00000000 (0000ms, 0683ms total)
T52A0 007:955 JLINK_ReadReg(FPS18)  returns 0x00000000 (0000ms, 0683ms total)
T52A0 007:955 JLINK_ReadReg(FPS19)  returns 0x00000000 (0000ms, 0683ms total)
T52A0 007:955 JLINK_ReadReg(FPS20)  returns 0x00000000 (0000ms, 0683ms total)
T52A0 007:955 JLINK_ReadReg(FPS21)  returns 0x00000000 (0000ms, 0683ms total)
T52A0 007:955 JLINK_ReadReg(FPS22)  returns 0x00000000 (0000ms, 0683ms total)
T52A0 007:955 JLINK_ReadReg(FPS23)  returns 0x00000000 (0000ms, 0683ms total)
T52A0 007:955 JLINK_ReadReg(FPS24)  returns 0x00000000 (0000ms, 0683ms total)
T52A0 007:955 JLINK_ReadReg(FPS25)  returns 0x00000000 (0001ms, 0684ms total)
T52A0 007:956 JLINK_ReadReg(FPS26)  returns 0x00000000 (0000ms, 0684ms total)
T52A0 007:956 JLINK_ReadReg(FPS27)  returns 0x00000000 (0000ms, 0684ms total)
T52A0 007:956 JLINK_ReadReg(FPS28)  returns 0x00000000 (0000ms, 0684ms total)
T52A0 007:956 JLINK_ReadReg(FPS29)  returns 0x00000000 (0000ms, 0684ms total)
T52A0 007:956 JLINK_ReadReg(FPS30)  returns 0x00000000 (0000ms, 0684ms total)
T52A0 007:956 JLINK_ReadReg(FPS31)  returns 0x00000000 (0000ms, 0684ms total)
T2BDC 007:961 JLINK_ReadMem (0x20000000, 0x0002 Bytes, ...) -- CPU_ReadMem(64 bytes @ 0x20000000) -- Updating C cache (64 bytes @ 0x20000000) -- Read from C cache (2 bytes @ 0x20000000) - Data: 00 00  returns 0x00 (0001ms, 0685ms total)
T2BDC 007:966 JLINK_ReadMem (0x08000254, 0x003C Bytes, ...) -- CPU_ReadMem(128 bytes @ 0x08000240) -- Updating C cache (128 bytes @ 0x08000240) -- Read from C cache (60 bytes @ 0x08000254) - Data: 29 46 20 46 00 F0 BB FA 29 46 20 46 00 F0 B9 FA ...  returns 0x00 (0001ms, 0686ms total)
T52A0 008:629 JLINK_Step() -- Read from C cache (2 bytes @ 0x0800025C) -- CPU_ReadMem(4 bytes @ 0xE0001004) -- Simulated  returns 0x00 (0001ms, 0687ms total)
T52A0 008:630 JLINK_ReadReg(R15 (PC))  returns 0x0800025E (0000ms, 0687ms total)
T52A0 008:630 JLINK_ReadReg(XPSR)  returns 0x61000000 (0000ms, 0687ms total)
T52A0 008:630 JLINK_Step() -- Read from C cache (2 bytes @ 0x0800025E) -- Simulated  returns 0x00 (0000ms, 0687ms total)
T52A0 008:630 JLINK_ReadReg(R15 (PC))  returns 0x08000260 (0000ms, 0687ms total)
T52A0 008:630 JLINK_ReadReg(XPSR)  returns 0x61000000 (0000ms, 0687ms total)
T52A0 008:630 JLINK_SetBPEx(Addr = 0x08000264, Type = 0xFFFFFFF2)  returns 0x0000000A (0000ms, 0687ms total)
T52A0 008:631 JLINK_SetBPEx(Addr = 0x0800023A, Type = 0xFFFFFFF2)  returns 0x0000000B (0000ms, 0688ms total)
T52A0 008:631 JLINK_Go() -- CPU_WriteMem(4 bytes @ 0xE0002000) -- CPU_WriteMem(4 bytes @ 0xE0002000) -- CPU_WriteMem(4 bytes @ 0xE0002008) -- CPU_WriteMem(4 bytes @ 0xE0001004) (0002ms, 0690ms total)
T52A0 008:734 JLINK_IsHalted()  returns TRUE (0002ms, 0692ms total)
T52A0 008:736 JLINK_Halt()  returns 0x00 (0000ms, 0690ms total)
T52A0 008:736 JLINK_IsHalted()  returns TRUE (0000ms, 0690ms total)
